  can0  120003FF   [4]  00 4E 09 47
  can0  120003FF   [4]  00 4E 09 45
  can0  120003FF   [4]  00 4E 09 45
  can0  120003FF   [4]  00 4E 09 47
  can0  140812FF   [8]  00 00 70 00 06 00 AC 00
  can0  140812FF   [8]  01 08 00 AC 02 3E 00 00
  can0  140812FF   [8]  02 02 40 00 00 02 42 00
  can0  140812FF   [8]  03 00 02 44 00 00 02 70
  can0  120003FF   [4]  00 4E 09 47
  can0  140812FF   [8]  04 00 00 02 A4 00 00 02
  can0  140812FF   [8]  05 A6 00 00 00 EA 00 00
  can0  140812FF   [8]  06 00 EC 00 00 00 F8 00
  can0  140812FF   [8]  07 00 00 FE 00 00 01 38
  can0  140812FF   [8]  08 00 00 01 3A 00 00 01
  can0  140812FF   [8]  09 3C 00 00 01 3E 00 00
  can0  140812FF   [8]  0A 01 40 00 00 01 42 00
  can0  140812FF   [8]  0B 00 01 44 00 00 01 46
  can0  140812FF   [8]  0C 00 00 03 72 80 00 03
  can0  140812FF   [8]  0D 74 00 00 03 76 00 00
  can0  120003FF   [4]  00 4E 09 45
  can0  140812FF   [8]  0E 03 78 00 00 03 7A 00
  can0  140812FF   [8]  0F 00 03 7C 01 0F 03 7E
  can0  140812FF   [3]  10 00 00
  can0  120003FF   [4]  00 4E 09 43
  can0  120003FF   [4]  00 4E 09 41
  can0  120003FF   [4]  00 4E 09 45
  can0  120003FF   [4]  00 4E 09 45
  can0  120003FF   [4]  00 4E 09 43
  can0  120003FF   [4]  00 4E 09 47
  can0  120003FF   [4]  00 4E 09 47
  can0  120003FF   [4]  00 4E 09 4B
  can0  120003FF   [4]  00 4E 09 4D
  can0  120003FF   [4]  00 4E 09 51
  can0  120003FF   [4]  00 4E 09 51
  can0  120003FF   [4]  00 4E 09 53
  can0  120003FF   [4]  00 4E 09 51
  can0  120003FF   [4]  00 4E 09 4D
  can0  120003FF   [4]  00 4E 09 4F
  can0  120003FF   [4]  00 4E 09 4D
  can0  120003FF   [4]  00 4E 09 47
  can0  120003FF   [4]  00 4E 09 47
  can0  120003FF   [4]  00 4E 09 47
  can0  120003FF   [4]  00 4E 09 49
  can0  120003FF   [4]  00 4E 09 4B
  can0  120003FF   [4]  00 4E 09 4B
  can0  120003FF   [4]  00 4E 09 49
  can0  120003FF   [4]  00 4E 09 49
  can0  120003FF   [4]  00 4E 09 49
  can0  120003FF   [4]  00 4E 09 49
  can0  120003FF   [4]  00 4E 09 47
  can0  120003FF   [4]  00 4E 09 47
  can0  120003FF   [4]  00 4E 09 45
  can0  120003FF   [4]  00 4E 09 49
  can0  120003FF   [4]  00 4E 09 47
  can0  120003FF   [4]  00 4E 09 43
  can0  120003FF   [4]  00 4E 09 3E
  can0  120003FF   [4]  00 4E 09 3E
  can0  120003FF   [4]  00 4E 09 41
  can0  120003FF   [4]  00 4E 09 45
  can0  120003FF   [4]  00 4E 09 45
  can0  120003FF   [4]  00 4E 09 43
  can0  120003FF   [4]  00 4E 09 43
  can0  120003FF   [4]  00 4E 09 43
  can0  120003FF   [4]  00 4E 09 49
  can0  120003FF   [4]  00 4E 09 47
  can0  120003FF   [4]  00 4E 09 47
  can0  140813FF   [8]  00 00 14 00 7C 00 01 00
  can0  140813FF   [8]  01 7E 00 00 00 80 00 00
  can0  140813FF   [8]  02 00 82 00 00 02 94 0F
  can0  140813FF   [2]  03 A0
  can0  120003FF   [4]  00 4E 09 47
  can0  120003FF   [4]  00 4E 09 42
  can0  120003FF   [4]  00 4E 09 40
  can0  120003FF   [4]  00 4E 09 43
  can0  120003FF   [4]  00 4E 09 49
  can0  120003FF   [4]  00 4E 09 49
  can0  120003FF   [4]  00 4E 09 4F
  can0  120003FF   [4]  00 4E 09 51
  can0  120003FF   [4]  00 4E 09 51
  can0  120003FF   [4]  00 4E 09 51
  can0  120003FF   [4]  00 4E 09 53
  can0  140810FF   [8]  00 00 0C 00 84 00 00 00
  can0  140810FF   [8]  01 8E 00 00 00 90 00 00
  can0  120003FF   [4]  00 4E 09 51
  can0  120003FF   [4]  00 4E 09 4F
  can0  120003FF   [4]  00 4E 09 4D
  can0  120003FF   [4]  00 4E 09 4B
  can0  120003FF   [4]  00 4E 09 45
  can0  120003FF   [4]  00 4E 09 41
  can0  120003FF   [4]  00 4E 09 3F
  can0  120003FF   [4]  00 4E 09 3C
  can0  120003FF   [4]  00 4E 09 41
  can0  120003FF   [4]  00 4E 09 45
  can0  120003FF   [4]  00 4E 09 43
  can0  120003FF   [4]  00 4E 09 43
  can0  120003FF   [4]  00 4E 09 45
  can0  120003FF   [4]  00 4E 09 49
  can0  120003FF   [4]  00 4E 09 4B
  can0  120003FF   [4]  00 4E 09 4B
  can0  120003FF   [4]  00 4E 09 4B
  can0  120003FF   [4]  00 4E 09 47
  can0  120003FF   [4]  00 4E 09 47
  can0  120003FF   [4]  00 4E 09 49
  can0  120003FF   [4]  00 4E 09 4B
  can0  120003FF   [4]  00 4E 09 49
  can0  120003FF   [4]  00 4E 09 47
  can0  120003FF   [4]  00 4E 09 47
  can0  120003FF   [4]  00 4E 09 47
  can0  120003FF   [4]  00 4E 09 4D
  can0  120003FF   [4]  00 4E 09 49
  can0  120003FF   [4]  00 4E 09 4B
  can0  120003FF   [4]  00 4E 09 4F
  can0  120003FF   [4]  00 4E 09 4D
  can0  120003FF   [4]  00 4E 09 4B
  can0  120003FF   [4]  00 4E 09 49
  can0  120003FF   [4]  00 4E 09 49
  can0  120003FF   [4]  00 4E 09 47
  can0  120003FF   [4]  00 4E 09 4B
  can0  120003FF   [4]  00 4E 09 47
  can0  120003FF   [4]  00 4E 09 45
  can0  120003FF   [4]  00 4E 09 47
  can0  120003FF   [4]  00 4E 09 45
  can0  120003FF   [4]  00 4E 09 47
  can0  120003FF   [4]  00 4E 09 45
  can0  120003FF   [4]  00 4E 09 41
  can0  120003FF   [4]  00 4E 09 41
  can0  120003FF   [4]  00 4E 09 3F
  can0  120003FF   [4]  00 4E 09 41
  can0  120003FF   [4]  00 4E 09 43
  can0  120003FF   [4]  00 4E 09 43
  can0  120003FF   [4]  00 4E 09 43
  can0  120003FF   [4]  00 4E 09 45
  can0  140811FF   [8]  00 00 34 00 04 FF AE 00
  can0  140811FF   [8]  01 02 00 00 00 0A 00 00
  can0  140811FF   [8]  02 00 0C 00 00 00 10 00
  can0  140811FF   [8]  03 00 00 12 04 B6 00 14
  can0  140811FF   [8]  04 00 00 00 18 00 00 00
  can0  140811FF   [8]  05 86 00 00 00 8A 00 00
  can0  140811FF   [8]  06 00 96 00 00 00 98 00
  can0  140811FF   [6]  07 00 00 9A 00 01
  can0  120003FF   [4]  00 4E 09 45
  can0  120003FF   [4]  00 4E 09 47
  can0  120003FF   [4]  00 4E 09 49
  can0  120003FF   [4]  00 4E 09 47
  can0  120003FF   [4]  00 4E 09 47
  can0  120003FF   [4]  00 4E 09 47
  can0  120003FF   [4]  00 4E 09 4B
  can0  120003FF   [4]  00 4E 09 45
  can0  120003FF   [4]  00 4E 09 45
  can0  120003FF   [4]  00 4E 09 49
  can0  120003FF   [4]  00 4E 09 49
  can0  120003FF   [4]  00 4E 09 49
  can0  120003FF   [4]  00 4E 09 4D
  can0  120003FF   [4]  00 4E 09 4B
  can0  120003FF   [4]  00 4E 09 49
  can0  120003FF   [4]  00 4E 09 4D
  can0  120003FF   [4]  00 4E 09 4B
  can0  120003FF   [4]  00 4E 09 4B
  can0  120003FF   [4]  00 4E 09 4B
  can0  120003FF   [4]  00 4E 09 47
  can0  120003FF   [4]  00 4E 09 47
  can0  120003FF   [4]  00 4E 09 47
  can0  120003FF   [4]  00 4E 09 49
  can0  120003FF   [4]  00 4E 09 49
  can0  120003FF   [4]  00 4E 09 49
  can0  120003FF   [4]  00 4E 09 45
  can0  120003FF   [4]  00 4E 09 49
  can0  120003FF   [4]  00 4E 09 4D
  can0  120003FF   [4]  00 4E 09 51
  can0  120003FF   [4]  00 4E 09 4B
  can0  120003FF   [4]  00 4E 09 4B
  can0  120003FF   [4]  00 4E 09 4B
  can0  120003FF   [4]  00 4E 09 4F
  can0  120003FF   [4]  00 4E 09 4F
  can0  120003FF   [4]  00 4E 09 4D
  can0  120003FF   [4]  00 4E 09 4B
  can0  120003FF   [4]  00 4E 09 49
  can0  120003FF   [4]  00 4E 09 4F
  can0  120003FF   [4]  00 4E 09 53
  can0  120003FF   [4]  00 4E 09 4F
  can0  120003FF   [4]  00 4E 09 53
  can0  120003FF   [4]  00 4E 09 4F
  can0  120003FF   [4]  00 4E 09 4D
  can0  120003FF   [4]  00 4E 09 51
  can0  120003FF   [4]  00 4E 09 51
  can0  120003FF   [4]  00 4E 09 4D
  can0  120003FF   [4]  00 4E 09 4D
  can0  140812FF   [8]  00 00 70 00 06 00 AC 00
  can0  140812FF   [8]  01 08 00 AB 02 3E 00 00
  can0  140812FF   [8]  02 02 40 00 00 02 42 00
  can0  140812FF   [8]  03 00 02 44 00 00 02 70
  can0  140812FF   [8]  04 00 00 02 A4 00 00 02
  can0  120003FF   [4]  00 4E 09 4D
  can0  140812FF   [8]  05 A6 00 00 00 EA 00 00
  can0  140812FF   [8]  06 00 EC 00 00 00 F8 00
  can0  140812FF   [8]  07 00 00 FE 00 00 01 38
  can0  140812FF   [8]  08 00 00 01 3A 00 00 01
  can0  140812FF   [8]  09 3C 00 00 01 3E 00 00
  can0  140812FF   [8]  0A 01 40 00 00 01 42 00
  can0  140812FF   [8]  0B 00 01 44 00 00 01 46
  can0  140812FF   [8]  0C 00 00 03 72 80 00 03
  can0  140812FF   [8]  0D 74 00 00 03 76 00 00
  can0  140812FF   [8]  0E 03 78 00 00 03 7A 00
  can0  120003FF   [4]  00 4E 09 47
  can0  140812FF   [8]  0F 00 03 7C 01 0F 03 7E
  can0  140812FF   [3]  10 00 00
  can0  120003FF   [4]  00 4E 09 4B
  can0  120003FF   [4]  00 4E 09 53
  can0  120003FF   [4]  00 4E 09 51
  can0  140810FF   [8]  00 00 0C 00 84 00 00 00
  can0  140810FF   [8]  01 8E 00 00 00 90 00 00
  can0  120003FF   [4]  00 4E 09 4F
  can0  120003FF   [4]  00 4E 09 4D
  can0  120003FF   [4]  00 4E 09 4F
  can0  120003FF   [4]  00 4E 09 4D
  can0  120003FF   [4]  00 4E 09 4F
  can0  120003FF   [4]  00 4E 09 4B
  can0  120003FF   [4]  00 4E 09 47
  can0  120003FF   [4]  00 4E 09 49
  can0  120003FF   [4]  00 4E 09 4B
  can0  120003FF   [4]  00 4E 09 4B
  can0  120003FF   [4]  00 4E 09 4D
  can0  120003FF   [4]  00 4E 09 4F
  can0  120003FF   [4]  00 4E 09 4D
  can0  120003FF   [4]  00 4E 09 4F
  can0  120003FF   [4]  00 4E 09 4F
  can0  120003FF   [4]  00 4E 09 4F
  can0  120003FF   [4]  00 4E 09 51
  can0  120003FF   [4]  00 4E 09 4F
  can0  120003FF   [4]  00 4E 09 4D
  can0  120003FF   [4]  00 4E 09 4B
  can0  120003FF   [4]  00 4E 09 4B
  can0  120003FF   [4]  00 4E 09 4B
  can0  120003FF   [4]  00 4E 09 4B
  can0  120003FF   [4]  00 4E 09 49
  can0  120003FF   [4]  00 4E 09 4B
  can0  120003FF   [4]  00 4E 09 4B
  can0  120003FF   [4]  00 4E 09 49
  can0  120003FF   [4]  00 4E 09 4D
  can0  120003FF   [4]  00 4E 09 4B
  can0  120003FF   [4]  00 4E 09 4D
  can0  120003FF   [4]  00 4E 09 49
  can0  120003FF   [4]  00 4E 09 47
  can0  120003FF   [4]  00 4E 09 45
  can0  120003FF   [4]  00 4E 09 41
  can0  120003FF   [4]  00 4E 09 41
  can0  120003FF   [4]  00 4E 09 41
  can0  120003FF   [4]  00 4E 09 41
  can0  120003FF   [4]  00 4E 09 3F
  can0  120003FF   [4]  00 4E 09 43
  can0  120003FF   [4]  00 4E 09 41
  can0  120003FF   [4]  00 4E 09 45
  can0  120003FF   [4]  00 4E 09 47
  can0  120003FF   [4]  00 4E 09 45
  can0  120003FF   [4]  00 4E 09 43
  can0  120003FF   [4]  00 4E 09 3E
  can0  120003FF   [4]  00 4E 09 41
  can0  120003FF   [4]  00 4E 09 41
  can0  120003FF   [4]  00 4E 09 43
  can0  120003FF   [4]  00 4E 09 43
  can0  120003FF   [4]  00 4E 09 41
  can0  120003FF   [4]  00 4E 09 43
  can0  120003FF   [4]  00 4E 09 47
  can0  120003FF   [4]  00 4E 09 49
  can0  120003FF   [4]  00 4E 09 49
  can0  120003FF   [4]  00 4E 09 49
  can0  120003FF   [4]  00 4E 09 49
  can0  120003FF   [4]  00 4E 09 4B
  can0  120003FF   [4]  00 4E 09 4D
  can0  120003FF   [4]  00 4E 09 53
  can0  120003FF   [4]  00 4E 09 53
  can0  120003FF   [4]  00 4E 09 4F
  can0  120003FF   [4]  00 4E 09 4F
  can0  120003FF   [4]  00 4E 09 4D
  can0  120003FF   [4]  00 4E 09 4D
  can0  120003FF   [4]  00 4E 09 51
  can0  120003FF   [4]  00 4E 09 4D
  can0  120003FF   [4]  00 4E 09 47
  can0  120003FF   [4]  00 4E 09 47
  can0  140811FF   [8]  00 00 34 00 04 FF AC 00
  can0  120003FF   [4]  00 4E 09 47
  can0  140811FF   [8]  01 02 00 00 00 0A 00 05
  can0  140811FF   [8]  02 00 0C 00 00 00 10 00
  can0  140811FF   [8]  03 00 00 12 04 B6 00 14
  can0  140811FF   [8]  04 00 00 00 18 00 00 00
  can0  140811FF   [8]  05 86 00 00 00 8A 00 00
  can0  140811FF   [8]  06 00 96 00 00 00 98 00
  can0  140811FF   [6]  07 00 00 9A 00 01
  can0  120003FF   [4]  00 4E 09 43
  can0  120003FF   [4]  00 4E 09 43
  can0  120003FF   [4]  00 4E 09 40
  can0  120003FF   [4]  00 4E 09 3E
  can0  120003FF   [4]  00 4E 09 43
  can0  120003FF   [4]  00 4E 09 45
  can0  120003FF   [4]  00 4E 09 43
  can0  120003FF   [4]  00 4E 09 43
  can0  120003FF   [4]  00 4E 09 49
  can0  120003FF   [4]  00 4E 09 49
  can0  120003FF   [4]  00 4E 09 4D
  can0  120003FF   [4]  00 4E 09 51
  can0  120003FF   [4]  00 4E 09 4D
  can0  120003FF   [4]  00 4E 09 4B
  can0  120003FF   [4]  00 4E 09 4F
  can0  120003FF   [4]  00 4E 09 4F
  can0  120003FF   [4]  00 4E 09 49
  can0  120003FF   [4]  00 4E 09 49
  can0  120003FF   [4]  00 4E 09 45
  can0  140813FF   [8]  00 00 14 00 7C 00 01 00
  can0  140813FF   [8]  01 7E 00 00 00 80 00 00
  can0  140813FF   [8]  02 00 82 00 00 02 94 0F
  can0  120003FF   [4]  00 4E 09 47
  can0  140813FF   [2]  03 A0
  can0  120003FF   [4]  00 4E 09 47
  can0  120003FF   [4]  00 4E 09 45
  can0  120003FF   [4]  00 4E 09 4B
  can0  120003FF   [4]  00 4E 09 4F
  can0  120003FF   [4]  00 4E 09 55
  can0  120003FF   [4]  00 4E 09 57
  can0  120003FF   [4]  00 4E 09 59
  can0  120003FF   [4]  00 4E 09 57
  can0  120003FF   [4]  00 4E 09 57
  can0  120003FF   [4]  00 4E 09 53
  can0  120003FF   [4]  00 4E 09 4F
  can0  140810FF   [8]  00 00 0C 00 84 00 00 00
  can0  140810FF   [8]  01 8E 00 00 00 90 00 00
  can0  120003FF   [4]  00 4E 09 4B
  can0  120003FF   [4]  00 4E 09 47
  can0  120003FF   [4]  00 4E 09 49
  can0  120003FF   [4]  00 4E 09 49
  can0  120003FF   [4]  00 4E 09 4B
  can0  120003FF   [4]  00 4E 09 4F
  can0  120003FF   [4]  00 4E 09 4F
  can0  120003FF   [4]  00 4E 09 4F
  can0  120003FF   [4]  00 4E 09 4D
  can0  120003FF   [4]  00 4E 09 51
  can0  120003FF   [4]  00 4E 09 4F
  can0  120003FF   [4]  00 4E 09 4B
  can0  120003FF   [4]  00 4E 09 4B
  can0  120003FF   [4]  00 4E 09 47
  can0  120003FF   [4]  00 4E 09 47
  can0  120003FF   [4]  00 4E 09 4D
  can0  120003FF   [4]  00 4E 09 4D
  can0  120003FF   [4]  00 4E 09 4D
  can0  120003FF   [4]  00 4E 09 4B
  can0  120003FF   [4]  00 4E 09 4B
  can0  120003FF   [4]  00 4E 09 4D
  can0  120003FF   [4]  00 4E 09 4D
  can0  120003FF   [4]  00 4E 09 4B
  can0  120003FF   [4]  00 4E 09 49
  can0  120003FF   [4]  00 4E 09 49
  can0  120003FF   [4]  00 4E 09 45
  can0  120003FF   [4]  00 4E 09 41
  can0  120003FF   [4]  00 4E 09 41
  can0  120003FF   [4]  00 4E 09 3F
  can0  120003FF   [4]  00 4E 09 3A
  can0  120003FF   [4]  00 4E 09 3A
  can0  120003FF   [4]  00 4E 09 36
  can0  120003FF   [4]  00 4E 09 3A
  can0  120003FF   [4]  00 4E 09 3C
  can0  120003FF   [4]  00 4E 09 3F
  can0  120003FF   [4]  00 4E 09 41
  can0  120003FF   [4]  00 4E 09 43
  can0  120003FF   [4]  00 4E 09 43
  can0  120003FF   [4]  00 4E 09 47
  can0  120003FF   [4]  00 4E 09 49
  can0  120003FF   [4]  00 4E 09 4B
  can0  120003FF   [4]  00 4E 09 4D
  can0  120003FF   [4]  00 4E 09 4F
  can0  120003FF   [4]  00 4E 09 4D
  can0  120003FF   [4]  00 4E 09 4F
  can0  120003FF   [4]  00 4E 09 4D
  can0  120003FF   [4]  00 4E 09 4B
  can0  140812FF   [8]  00 00 70 00 06 00 AC 00
  can0  140812FF   [8]  01 08 00 AC 02 3E 00 00
  can0  140812FF   [8]  02 02 40 00 00 02 42 00
  can0  140812FF   [8]  03 00 02 44 00 00 02 70
  can0  140812FF   [8]  04 00 00 02 A4 00 00 02
  can0  140812FF   [8]  05 A6 00 00 00 EA 00 00
  can0  140812FF   [8]  06 00 EC 00 00 00 F8 00
  can0  120003FF   [4]  00 4E 09 4B
  can0  140812FF   [8]  07 00 00 FE 00 00 01 38
  can0  140812FF   [8]  08 00 00 01 3A 00 00 01
  can0  140812FF   [8]  09 3C 00 00 01 3E 00 00
  can0  140812FF   [8]  0A 01 40 00 00 01 42 00
  can0  140812FF   [8]  0B 00 01 44 00 00 01 46
  can0  140812FF   [8]  0C 00 00 03 72 80 00 03
  can0  140812FF   [8]  0D 74 00 00 03 76 00 00
  can0  140812FF   [8]  0E 03 78 00 00 03 7A 00
  can0  140812FF   [8]  0F 00 03 7C 01 0F 03 7E
  can0  140812FF   [3]  10 00 00
  can0  120003FF   [4]  00 4E 09 4D
  can0  120003FF   [4]  00 4E 09 49
  can0  120003FF   [4]  00 4E 09 4B
  can0  120003FF   [4]  00 4E 09 4B
  can0  120003FF   [4]  00 4E 09 4B
  can0  120003FF   [4]  00 4E 09 4D
  can0  120003FF   [4]  00 4E 09 4D
  can0  120003FF   [4]  00 4E 09 4D
  can0  120003FF   [4]  00 4E 09 49
  can0  120003FF   [4]  00 4E 09 49
  can0  120003FF   [4]  00 4E 09 4B
  can0  120003FF   [4]  00 4E 09 4B
  can0  120003FF   [4]  00 4E 09 4B
  can0  120003FF   [4]  00 4E 09 49
  can0  120003FF   [4]  00 4E 09 49
  can0  120003FF   [4]  00 4E 09 4D
  can0  120003FF   [4]  00 4E 09 49
  can0  120003FF   [4]  00 4E 09 47
  can0  120003FF   [4]  00 4E 09 47
  can0  120003FF   [4]  00 4E 09 4B
  can0  120003FF   [4]  00 4E 09 4B
  can0  120003FF   [4]  00 4E 09 49
  can0  120003FF   [4]  00 4E 09 49
  can0  120003FF   [4]  00 4E 09 45
  can0  120003FF   [4]  00 4E 09 47
  can0  120003FF   [4]  00 4E 09 49
  can0  120003FF   [4]  00 4E 09 47
  can0  120003FF   [4]  00 4E 09 45
  can0  120003FF   [4]  00 4E 09 49
  can0  120003FF   [4]  00 4E 09 49
  can0  120003FF   [4]  00 4E 09 4B
  can0  120003FF   [4]  00 4E 09 4D
  can0  120003FF   [4]  00 4E 09 49
  can0  120003FF   [4]  00 4E 09 47
  can0  120003FF   [4]  00 4E 09 47
  can0  120003FF   [4]  00 4E 09 41
  can0  120003FF   [4]  00 4E 09 41
  can0  120003FF   [4]  00 4E 09 3F
  can0  120003FF   [4]  00 4E 09 3D
  can0  120003FF   [4]  00 4E 09 3A
  can0  120003FF   [4]  00 4E 09 3C
  can0  120003FF   [4]  00 4E 09 41
  can0  140811FF   [8]  00 00 34 00 04 FF AC 00
  can0  140811FF   [8]  01 02 00 00 00 0A 00 00
  can0  140811FF   [8]  02 00 0C 00 00 00 10 00
  can0  140811FF   [8]  03 00 00 12 04 B4 00 14
  can0  140811FF   [8]  04 00 00 00 18 00 00 00
  can0  140811FF   [8]  05 86 00 00 00 8A 00 00
  can0  140811FF   [8]  06 00 96 00 00 00 98 00
  can0  140811FF   [6]  07 00 00 9A 00 01
  can0  120003FF   [4]  00 4E 09 3E
  can0  120003FF   [4]  00 4E 09 41
  can0  120003FF   [4]  00 4E 09 45
  can0  120003FF   [4]  00 4E 09 42
  can0  120003FF   [4]  00 4E 09 45
  can0  120003FF   [4]  00 4E 09 45
  can0  120003FF   [4]  00 4E 09 49
  can0  120003FF   [4]  00 4E 09 49
  can0  120003FF   [4]  00 4E 09 4F
  can0  120003FF   [4]  00 4E 09 4B
  can0  120003FF   [4]  00 4E 09 49
  can0  140810FF   [8]  00 00 0C 00 84 00 00 00
  can0  140810FF   [8]  01 8E 00 00 00 90 00 00
  can0  120003FF   [4]  00 4E 09 4B
  can0  120003FF   [4]  00 4E 09 4D
  can0  120003FF   [4]  00 4E 09 4B
  can0  120003FF   [4]  00 4E 09 49
  can0  120003FF   [4]  00 4E 09 45
  can0  120003FF   [4]  00 4E 09 41
  can0  120003FF   [4]  00 4E 09 3F
  can0  120003FF   [4]  00 4E 09 3A
  can0  120003FF   [4]  00 4E 09 3A
  can0  120003FF   [4]  00 4E 09 3A
  can0  120003FF   [4]  00 4E 09 3C
  can0  120003FF   [4]  00 4E 09 3C
  can0  120003FF   [4]  00 4E 09 3F
  can0  120003FF   [4]  00 4E 09 41
  can0  120003FF   [4]  00 4E 09 43
  can0  120003FF   [4]  00 4E 09 45
  can0  120003FF   [4]  00 4E 09 45
  can0  120003FF   [4]  00 4E 09 45
  can0  120003FF   [4]  00 4E 09 49
  can0  120003FF   [4]  00 4E 09 4D
  can0  120003FF   [4]  00 4E 09 4D
  can0  120003FF   [4]  00 4E 09 4F
  can0  120003FF   [4]  00 4E 09 4F
  can0  120003FF   [4]  00 4E 09 51
  can0  120003FF   [4]  00 4E 09 51
  can0  120003FF   [4]  00 4E 09 51
  can0  120003FF   [4]  00 4E 09 49
  can0  120003FF   [4]  00 4E 09 47
  can0  120003FF   [4]  00 4E 09 49
  can0  120003FF   [4]  00 4E 09 45
  can0  120003FF   [4]  00 4E 09 49
  can0  120003FF   [4]  00 4E 09 49
  can0  120003FF   [4]  00 4E 09 47
  can0  120003FF   [4]  00 4E 09 4B
  can0  120003FF   [4]  00 4E 09 4D
  can0  120003FF   [4]  00 4E 09 49
  can0  120003FF   [4]  00 4E 09 49
  can0  120003FF   [4]  00 4E 09 4D
  can0  120003FF   [4]  00 4E 09 49
  can0  120003FF   [4]  00 4E 09 4B
  can0  120003FF   [4]  00 4E 09 49
  can0  120003FF   [4]  00 4E 09 47
  can0  120003FF   [4]  00 4E 09 49
  can0  120003FF   [4]  00 4E 09 4B
  can0  120003FF   [4]  00 4E 09 47
  can0  120003FF   [4]  00 4E 09 43
  can0  120003FF   [4]  00 4E 09 43
  can0  120003FF   [4]  00 4E 09 45
  can0  120003FF   [4]  00 4E 09 45
  can0  120003FF   [4]  00 4E 09 43
  can0  120003FF   [4]  00 4E 09 41
  can0  120003FF   [4]  00 4E 09 43
  can0  120003FF   [4]  00 4E 09 49
  can0  120003FF   [4]  00 4E 09 4D
  can0  120003FF   [4]  00 4E 09 4D
  can0  120003FF   [4]  00 4E 09 47
  can0  120003FF   [4]  00 4E 09 43
  can0  120003FF   [4]  00 4E 09 45
  can0  120003FF   [4]  00 4E 09 45
  can0  120003FF   [4]  00 4E 09 45
  can0  120003FF   [4]  00 4E 09 3C
  can0  120003FF   [4]  00 4E 09 3A
  can0  120003FF   [4]  00 4E 09 3E
  can0  120003FF   [4]  00 4E 09 43
  can0  120003FF   [4]  00 4E 09 49
  can0  120003FF   [4]  00 4E 09 4B
  can0  120003FF   [4]  00 4E 09 47
  can0  120003FF   [4]  00 4E 09 47
  can0  120003FF   [4]  00 4E 09 47
  can0  120003FF   [4]  00 4E 09 47
  can0  120003FF   [4]  00 4E 09 45
  can0  120003FF   [4]  00 4E 09 43
  can0  120003FF   [4]  00 4E 09 41
  can0  120003FF   [4]  00 4E 09 41
  can0  120003FF   [4]  00 4E 09 41
  can0  120003FF   [4]  00 4E 09 41
  can0  120003FF   [4]  00 4E 09 43
  can0  120003FF   [4]  00 4E 09 47
  can0  120003FF   [4]  00 4E 09 4B
  can0  120003FF   [4]  00 4E 09 4D
  can0  120003FF   [4]  00 4E 09 49
  can0  120003FF   [4]  00 4E 09 49
  can0  120003FF   [4]  00 4E 09 47
  can0  120003FF   [4]  00 4E 09 49
  can0  120003FF   [4]  00 4E 09 49
  can0  120003FF   [4]  00 4E 09 45
  can0  120003FF   [4]  00 4E 09 3C
  can0  120003FF   [4]  00 4E 09 3C
  can0  140813FF   [8]  00 00 14 00 7C 00 01 00
  can0  140813FF   [8]  01 7E 00 00 00 80 00 00
  can0  140813FF   [8]  02 00 82 00 00 02 94 0F
  can0  140813FF   [2]  03 A0
  can0  120003FF   [4]  00 4E 09 3A
  can0  120003FF   [4]  00 4E 09 3C
  can0  120003FF   [4]  00 4E 09 3E
  can0  120003FF   [4]  00 4E 09 3E
  can0  120003FF   [4]  00 4E 09 43
  can0  120003FF   [4]  00 4E 09 43
  can0  120003FF   [4]  00 4E 09 4B
  can0  120003FF   [4]  00 4E 09 4F
  can0  120003FF   [4]  00 4E 09 53
  can0  120003FF   [4]  00 4E 09 51
  can0  140812FF   [8]  00 00 70 00 06 00 AC 00
  can0  140812FF   [8]  01 08 00 AB 02 3E 00 00
  can0  140812FF   [8]  02 02 40 00 00 02 42 00
  can0  140812FF   [8]  03 00 02 44 00 00 02 70
  can0  140812FF   [8]  04 00 00 02 A4 00 00 02
  can0  140812FF   [8]  05 A6 00 00 00 EA 00 00
  can0  140812FF   [8]  06 00 EC 00 00 00 F8 00
  can0  140812FF   [8]  07 00 00 FE 00 00 01 38
  can0  120003FF   [4]  00 4E 09 53
  can0  140812FF   [8]  08 00 00 01 3A 00 00 01
  can0  140812FF   [8]  09 3C 00 00 01 3E 00 00
  can0  140812FF   [8]  0A 01 40 00 00 01 42 00
  can0  140812FF   [8]  0B 00 01 44 00 00 01 46
  can0  140812FF   [8]  0C 00 00 03 72 80 00 03
  can0  140812FF   [8]  0D 74 00 00 03 76 00 00
  can0  140812FF   [8]  0E 03 78 00 00 03 7A 00
  can0  140812FF   [8]  0F 00 03 7C 01 0F 03 7E
  can0  140812FF   [3]  10 00 00
  can0  120003FF   [4]  00 4E 09 51
  can0  140810FF   [8]  00 00 0C 00 84 00 00 00
  can0  140810FF   [8]  01 8E 00 00 00 90 00 00
  can0  120003FF   [4]  00 4E 09 4D
  can0  120003FF   [4]  00 4E 09 4D
  can0  120003FF   [4]  00 4E 09 4B
  can0  120003FF   [4]  00 4E 09 49
  can0  120003FF   [4]  00 4E 09 49
  can0  120003FF   [4]  00 4E 09 49
  can0  120003FF   [4]  00 4E 09 49
  can0  120003FF   [4]  00 4E 09 4B
  can0  120003FF   [4]  00 4E 09 49
  can0  120003FF   [4]  00 4E 09 49
  can0  140811FF   [8]  00 00 34 00 04 FF AC 00
  can0  140811FF   [8]  01 02 00 00 00 0A 00 03
  can0  140811FF   [8]  02 00 0C 00 00 00 10 00
  can0  140811FF   [8]  03 00 00 12 04 B6 00 14
  can0  140811FF   [8]  04 00 00 00 18 00 00 00
  can0  140811FF   [8]  05 86 00 00 00 8A 00 00
  can0  140811FF   [8]  06 00 96 00 00 00 98 00
  can0  140811FF   [6]  07 00 00 9A 00 01
  can0  120003FF   [4]  00 4E 09 4B
  can0  120003FF   [4]  00 4E 09 45
  can0  120003FF   [4]  00 4E 09 45
  can0  120003FF   [4]  00 4E 09 45
  can0  120003FF   [4]  00 4E 09 41
  can0  120003FF   [4]  00 4E 09 3F
  can0  120003FF   [4]  00 4E 09 41
  can0  120003FF   [4]  00 4E 09 43
  can0  120003FF   [4]  00 4E 09 41
  can0  120003FF   [4]  00 4E 09 45
  can0  120003FF   [4]  00 4E 09 47
  can0  120003FF   [4]  00 4E 09 4B
  can0  120003FF   [4]  00 4E 09 4F
  can0  120003FF   [4]  00 4E 09 4D
  can0  120003FF   [4]  00 4E 09 49
  can0  120003FF   [4]  00 4E 09 4D
  can0  120003FF   [4]  00 4E 09 51
  can0  120003FF   [4]  00 4E 09 51
  can0  120003FF   [4]  00 4E 09 4D
  can0  120003FF   [4]  00 4E 09 4F
  can0  120003FF   [4]  00 4E 09 51
  can0  120003FF   [4]  00 4E 09 55
  can0  120003FF   [4]  00 4E 09 59
  can0  120003FF   [4]  00 4E 09 59
  can0  120003FF   [4]  00 4E 09 55
  can0  120003FF   [4]  00 4E 09 51
  can0  120003FF   [4]  00 4E 09 51
  can0  120003FF   [4]  00 4E 09 53
  can0  120003FF   [4]  00 4E 09 53
  can0  120003FF   [4]  00 4E 09 51
  can0  120003FF   [4]  00 4E 09 4D
  can0  120003FF   [4]  00 4E 09 4F
  can0  120003FF   [4]  00 4E 09 4D
  can0  120003FF   [4]  00 4E 09 4F
  can0  120003FF   [4]  00 4E 09 4B
  can0  120003FF   [4]  00 4E 09 4B
  can0  120003FF   [4]  00 4E 09 4B
  can0  120003FF   [4]  00 4E 09 4B
  can0  120003FF   [4]  00 4E 09 4B
  can0  120003FF   [4]  00 4E 09 4B
  can0  120003FF   [4]  00 4E 09 4B
  can0  120003FF   [4]  00 4E 09 4D
  can0  120003FF   [4]  00 4E 09 4F
  can0  120003FF   [4]  00 4E 09 4F
  can0  120003FF   [4]  00 4E 09 53
  can0  120003FF   [4]  00 4E 09 55
  can0  120003FF   [4]  00 4E 09 55
  can0  120003FF   [4]  00 4E 09 56
  can0  120003FF   [4]  00 4E 09 58
  can0  120003FF   [4]  00 4E 09 58
  can0  120003FF   [4]  00 4E 09 55
  can0  120003FF   [4]  00 4E 09 55
  can0  120003FF   [4]  00 4E 09 51
  can0  120003FF   [4]  00 4E 09 4F
  can0  120003FF   [4]  00 4E 09 4F
  can0  120003FF   [4]  00 4E 09 4F
  can0  120003FF   [4]  00 4E 09 4D
  can0  120003FF   [4]  00 4E 09 4D
  can0  120003FF   [4]  00 4E 09 4F
  can0  120003FF   [4]  00 4E 09 4F
  can0  120003FF   [4]  00 4E 09 4F
  can0  120003FF   [4]  00 4E 09 4D
  can0  120003FF   [4]  00 4E 09 4F
  can0  120003FF   [4]  00 4E 09 4F
  can0  120003FF   [4]  00 4E 09 4F
  can0  120003FF   [4]  00 4E 09 49
  can0  120003FF   [4]  00 4E 09 45
  can0  120003FF   [4]  00 4E 09 43
  can0  120003FF   [4]  00 4E 09 45
  can0  120003FF   [4]  00 4E 09 45
  can0  120003FF   [4]  00 4E 09 47
  can0  120003FF   [4]  00 4E 09 49
  can0  120003FF   [4]  00 4E 09 47
  can0  120003FF   [4]  00 4E 09 49
  can0  120003FF   [4]  00 4E 09 4D
  can0  120003FF   [4]  00 4E 09 51
  can0  120003FF   [4]  00 4E 09 53
  can0  120003FF   [4]  00 4E 09 53
  can0  120003FF   [4]  00 4E 09 4F
  can0  120003FF   [4]  00 4E 09 4D
  can0  120003FF   [4]  00 4E 09 4D
  can0  120003FF   [4]  00 4E 09 4B
  can0  120003FF   [4]  00 4E 09 49
  can0  120003FF   [4]  00 4E 09 4B
  can0  120003FF   [4]  00 4E 09 47
  can0  120003FF   [4]  00 4E 09 43
  can0  120003FF   [4]  00 4E 09 41
  can0  120003FF   [4]  00 4E 09 41
  can0  120003FF   [4]  00 4E 09 45
  can0  120003FF   [4]  00 4E 09 49
  can0  140810FF   [8]  00 00 0C 00 84 00 00 00
  can0  140810FF   [8]  01 8E 00 00 00 90 00 00
  can0  120003FF   [4]  00 4E 09 4D
  can0  120003FF   [4]  00 4E 09 4F
  can0  120003FF   [4]  00 4E 09 51
  can0  120003FF   [4]  00 4E 09 55
  can0  120003FF   [4]  00 4E 09 5B
  can0  120003FF   [4]  00 4E 09 59
  can0  120003FF   [4]  00 4E 09 53
  can0  120003FF   [4]  00 4E 09 4F
  can0  120003FF   [4]  00 4E 09 4B
  can0  120003FF   [4]  00 4E 09 4D
  can0  120003FF   [4]  00 4E 09 51
  can0  120003FF   [4]  00 4E 09 51
  can0  120003FF   [4]  00 4E 09 4D
  can0  120003FF   [4]  00 4E 09 4B
  can0  120003FF   [4]  00 4E 09 49
  can0  120003FF   [4]  00 4E 09 49
  can0  120003FF   [4]  00 4E 09 4B
  can0  120003FF   [4]  00 4E 09 45
  can0  120003FF   [4]  00 4E 09 3E
  can0  120003FF   [4]  00 4E 09 43
  can0  120003FF   [4]  00 4E 09 47
  can0  120003FF   [4]  00 4E 09 49
  can0  120003FF   [4]  00 4E 09 4B
  can0  120003FF   [4]  00 4E 09 49
  can0  120003FF   [4]  00 4E 09 4D
  can0  120003FF   [4]  00 4E 09 4D
  can0  120003FF   [4]  00 4E 09 4F
  can0  120003FF   [4]  00 4E 09 4F
  can0  120003FF   [4]  00 4E 09 4D
  can0  120003FF   [4]  00 4E 09 4B
  can0  120003FF   [4]  00 4E 09 4D
  can0  140811FF   [8]  00 00 34 00 04 FF AF 00
  can0  140811FF   [8]  01 02 00 00 00 0A 00 00
  can0  140811FF   [8]  02 00 0C 00 00 00 10 00
  can0  140811FF   [8]  03 00 00 12 04 B5 00 14
  can0  140811FF   [8]  04 00 00 00 18 00 00 00
  can0  140811FF   [8]  05 86 00 00 00 8A 00 00
  can0  140811FF   [8]  06 00 96 00 00 00 98 00
  can0  140811FF   [6]  07 00 00 9A 00 01
  can0  120003FF   [4]  00 4E 09 4F
  can0  120003FF   [4]  00 4E 09 4F
  can0  120003FF   [4]  00 4E 09 51
  can0  120003FF   [4]  00 4E 09 51
  can0  120003FF   [4]  00 4E 09 51
  can0  120003FF   [4]  00 4E 09 51
  can0  120003FF   [4]  00 4E 09 51
  can0  120003FF   [4]  00 4E 09 4F
  can0  120003FF   [4]  00 4E 09 4D
  can0  120003FF   [4]  00 4E 09 4F
  can0  120003FF   [4]  00 4E 09 55
  can0  120003FF   [4]  00 4E 09 4F
  can0  120003FF   [4]  00 4E 09 4F
  can0  120003FF   [4]  00 4E 09 4F
  can0  120003FF   [4]  00 4E 09 4D
  can0  120003FF   [4]  00 4E 09 4F
  can0  120003FF   [4]  00 4E 09 4F
  can0  120003FF   [4]  00 4E 09 4D
  can0  120003FF   [4]  00 4E 09 4B
  can0  140812FF   [8]  00 00 70 00 06 00 AC 00
  can0  140812FF   [8]  01 08 00 AC 02 3E 00 00
  can0  140812FF   [8]  02 02 40 00 00 02 42 00
  can0  140812FF   [8]  03 00 02 44 00 00 02 70
  can0  140812FF   [8]  04 00 00 02 A4 00 00 02
  can0  140812FF   [8]  05 A6 00 00 00 EA 00 00
  can0  140812FF   [8]  06 00 EC 00 00 00 F8 00
  can0  140812FF   [8]  07 00 00 FE 00 00 01 38
  can0  120003FF   [4]  00 4E 09 4B
  can0  140812FF   [8]  08 00 00 01 3A 00 00 01
  can0  140812FF   [8]  09 3C 00 00 01 3E 00 00
  can0  140812FF   [8]  0A 01 40 00 00 01 42 00
  can0  140812FF   [8]  0B 00 01 44 00 00 01 46
  can0  140812FF   [8]  0C 00 00 03 72 80 00 03
  can0  140812FF   [8]  0D 74 00 00 03 76 00 00
  can0  140812FF   [8]  0E 03 78 00 00 03 7A 00
  can0  140812FF   [8]  0F 00 03 7C 01 0F 03 7E
  can0  140812FF   [3]  10 00 00
  can0  120003FF   [4]  00 4E 09 4B
  can0  120003FF   [4]  00 4E 09 4B
  can0  120003FF   [4]  00 4E 09 4B
  can0  120003FF   [4]  00 4E 09 4B
  can0  120003FF   [4]  00 4E 09 4D
  can0  120003FF   [4]  00 4E 09 49
  can0  120003FF   [4]  00 4E 09 49
  can0  120003FF   [4]  00 4E 09 47
  can0  120003FF   [4]  00 4E 09 47
  can0  120003FF   [4]  00 4E 09 45
  can0  120003FF   [4]  00 4E 09 47
  can0  120003FF   [4]  00 4E 09 49
  can0  120003FF   [4]  00 4E 09 49
  can0  120003FF   [4]  00 4E 09 4B
  can0  120003FF   [4]  00 4E 09 4F
  can0  120003FF   [4]  00 4E 09 51
  can0  120003FF   [4]  00 4E 09 4D
  can0  120003FF   [4]  00 4E 09 4D
  can0  120003FF   [4]  00 4E 09 4B
  can0  120003FF   [4]  00 4E 09 45
  can0  120003FF   [4]  00 4E 09 43
  can0  120003FF   [4]  00 4E 09 43
  can0  120003FF   [4]  00 4E 09 43
  can0  120003FF   [4]  00 4E 09 45
  can0  120003FF   [4]  00 4E 09 47
  can0  120003FF   [4]  00 4E 09 47
  can0  120003FF   [4]  00 4E 09 43
  can0  120003FF   [4]  00 4E 09 47
  can0  120003FF   [4]  00 4E 09 45
  can0  120003FF   [4]  00 4E 09 45
  can0  120003FF   [4]  00 4E 09 43
  can0  120003FF   [4]  00 4E 09 3C
  can0  120003FF   [4]  00 4E 09 41
  can0  120003FF   [4]  00 4E 09 43
  can0  120003FF   [4]  00 4E 09 47
  can0  120003FF   [4]  00 4E 09 45
  can0  120003FF   [4]  00 4E 09 43
  can0  140813FF   [8]  00 00 14 00 7C 00 01 00
  can0  120003FF   [4]  00 4E 09 43
  can0  140813FF   [8]  01 7E 00 00 00 80 00 00
  can0  140813FF   [8]  02 00 82 00 00 02 94 0F
  can0  140813FF   [2]  03 A0
  can0  120003FF   [4]  00 4E 09 43
  can0  120003FF   [4]  00 4E 09 45
  can0  120003FF   [4]  00 4E 09 41
  can0  120003FF   [4]  00 4E 09 3F
  can0  120003FF   [4]  00 4E 09 3C
  can0  120003FF   [4]  00 4E 09 43
  can0  120003FF   [4]  00 4E 09 43
  can0  120003FF   [4]  00 4E 09 45
  can0  120003FF   [4]  00 4E 09 43
  can0  120003FF   [4]  00 4E 09 40
  can0  120003FF   [4]  00 4E 09 45
  can0  120003FF   [4]  00 4E 09 45
  can0  140810FF   [8]  00 00 0C 00 84 00 00 00
  can0  140810FF   [8]  01 8E 00 00 00 90 00 00
  can0  120003FF   [4]  00 4E 09 47
  can0  120003FF   [4]  00 4E 09 49
  can0  120003FF   [4]  00 4E 09 49
  can0  120003FF   [4]  00 4E 09 4D
  can0  120003FF   [4]  00 4E 09 55
  can0  120003FF   [4]  00 4E 09 5B
  can0  120003FF   [4]  00 4E 09 59
  can0  120003FF   [4]  00 4E 09 55
  can0  120003FF   [4]  00 4E 09 4F
  can0  120003FF   [4]  00 4E 09 4D
  can0  120003FF   [4]  00 4E 09 4F
  can0  120003FF   [4]  00 4E 09 4F
  can0  120003FF   [4]  00 4E 09 49
  can0  120003FF   [4]  00 4E 09 4B
  can0  120003FF   [4]  00 4E 09 49
  can0  120003FF   [4]  00 4E 09 4B
  can0  120003FF   [4]  00 4E 09 53
  can0  120003FF   [4]  00 4E 09 51
  can0  120003FF   [4]  00 4E 09 4F
  can0  120003FF   [4]  00 4E 09 51
  can0  120003FF   [4]  00 4E 09 53
  can0  120003FF   [4]  00 4E 09 4D
  can0  120003FF   [4]  00 4E 09 4F
  can0  120003FF   [4]  00 4E 09 53
  can0  120003FF   [4]  00 4E 09 4F
  can0  120003FF   [4]  00 4E 09 51
  can0  120003FF   [4]  00 4E 09 53
  can0  120003FF   [4]  00 4E 09 51
  can0  120003FF   [4]  00 4E 09 4F
  can0  120003FF   [4]  00 4E 09 53
  can0  120003FF   [4]  00 4E 09 51
  can0  120003FF   [4]  00 4E 09 4B
  can0  120003FF   [4]  00 4E 09 4D
  can0  120003FF   [4]  00 4E 09 49
  can0  120003FF   [4]  00 4E 09 47
  can0  120003FF   [4]  00 4E 09 47
  can0  120003FF   [4]  00 4E 09 49
  can0  120003FF   [4]  00 4E 09 49
  can0  120003FF   [4]  00 4E 09 45
  can0  120003FF   [4]  00 4E 09 49
  can0  120003FF   [4]  00 4E 09 4B
  can0  120003FF   [4]  00 4E 09 4B
  can0  120003FF   [4]  00 4E 09 4F
  can0  120003FF   [4]  00 4E 09 4D
  can0  120003FF   [4]  00 4E 09 4B
  can0  120003FF   [4]  00 4E 09 47
  can0  120003FF   [4]  00 4E 09 47
  can0  120003FF   [4]  00 4E 09 43
  can0  120003FF   [4]  00 4E 09 45
  can0  120003FF   [4]  00 4E 09 47
  can0  120003FF   [4]  00 4E 09 49
  can0  140811FF   [8]  00 00 34 00 04 FF AE 00
  can0  140811FF   [8]  01 02 00 00 00 0A 00 00
  can0  140811FF   [8]  02 00 0C 00 00 00 10 00
  can0  140811FF   [8]  03 00 00 12 04 B6 00 14
  can0  140811FF   [8]  04 00 00 00 18 00 00 00
  can0  140811FF   [8]  05 86 00 00 00 8A 00 00
  can0  140811FF   [8]  06 00 96 00 00 00 98 00
  can0  140811FF   [6]  07 00 00 9A 00 01
  can0  120003FF   [4]  00 4E 09 49
  can0  120003FF   [4]  00 4E 09 4B
  can0  120003FF   [4]  00 4E 09 49
  can0  120003FF   [4]  00 4E 09 4B
  can0  120003FF   [4]  00 4E 09 51
  can0  120003FF   [4]  00 4E 09 53
  can0  120003FF   [4]  00 4E 09 4D
  can0  120003FF   [4]  00 4E 09 4B
  can0  120003FF   [4]  00 4E 09 4B
  can0  120003FF   [4]  00 4E 09 4F
  can0  120003FF   [4]  00 4E 09 51
  can0  120003FF   [4]  00 4E 09 4D
  can0  120003FF   [4]  00 4E 09 4B
  can0  120003FF   [4]  00 4E 09 47
  can0  120003FF   [4]  00 4E 09 47
  can0  120003FF   [4]  00 4E 09 49
  can0  120003FF   [4]  00 4E 09 49
  can0  120003FF   [4]  00 4E 09 4B
  can0  120003FF   [4]  00 4E 09 4F
  can0  120003FF   [4]  00 4E 09 53
  can0  120003FF   [4]  00 4E 09 53
  can0  120003FF   [4]  00 4E 09 5B
  can0  120003FF   [4]  00 4E 09 5B
  can0  120003FF   [4]  00 4E 09 5B
  can0  120003FF   [4]  00 4E 09 5B
  can0  120003FF   [4]  00 4E 09 5B
  can0  120003FF   [4]  00 4E 09 53
  can0  120003FF   [4]  00 4E 09 53
  can0  120003FF   [4]  00 4E 09 4D
  can0  120003FF   [4]  00 4E 09 4B
  can0  120003FF   [4]  00 4E 09 47
  can0  120003FF   [4]  00 4E 09 47
  can0  120003FF   [4]  00 4E 09 43
  can0  120003FF   [4]  00 4E 09 41
  can0  120003FF   [4]  00 4E 09 45
  can0  120003FF   [4]  00 4E 09 45
  can0  120003FF   [4]  00 4E 09 47
  can0  120003FF   [4]  00 4E 09 4B
  can0  120003FF   [4]  00 4E 09 4F
  can0  120003FF   [4]  00 4E 09 4D
  can0  120003FF   [4]  00 4E 09 4D
  can0  120003FF   [4]  00 4E 09 4D
  can0  120003FF   [4]  00 4E 09 49
  can0  120003FF   [4]  00 4E 09 49
  can0  120003FF   [4]  00 4E 09 49
  can0  120003FF   [4]  00 4E 09 45
  can0  120003FF   [4]  00 4E 09 41
  can0  120003FF   [4]  00 4E 09 45
  can0  120003FF   [4]  00 4E 09 47
  can0  140810FF   [8]  00 00 0C 00 84 00 00 00
  can0  140810FF   [8]  01 8E 00 00 00 90 00 00
  can0  120003FF   [4]  00 4E 09 43
  can0  140812FF   [8]  00 00 70 00 06 00 AC 00
  can0  140812FF   [8]  01 08 00 AC 02 3E 00 00
  can0  140812FF   [8]  02 02 40 00 00 02 42 00
  can0  140812FF   [8]  03 00 02 44 00 00 02 70
  can0  140812FF   [8]  04 00 00 02 A4 00 00 02
  can0  140812FF   [8]  05 A6 00 00 00 EA 00 00
  can0  140812FF   [8]  06 00 EC 00 00 00 F8 00
  can0  140812FF   [8]  07 00 00 FE 00 00 01 38
  can0  140812FF   [8]  08 00 00 01 3A 00 00 01
  can0  120003FF   [4]  00 4E 09 45
  can0  140812FF   [8]  09 3C 00 00 01 3E 00 00
  can0  140812FF   [8]  0A 01 40 00 00 01 42 00
  can0  140812FF   [8]  0B 00 01 44 00 00 01 46
  can0  140812FF   [8]  0C 00 00 03 72 80 00 03
  can0  140812FF   [8]  0D 74 00 00 03 76 00 00
  can0  140812FF   [8]  0E 03 78 00 00 03 7A 00
  can0  140812FF   [8]  0F 00 03 7C 01 0F 03 7E
  can0  140812FF   [3]  10 00 00
  can0  120003FF   [4]  00 4E 09 43
  can0  120003FF   [4]  00 4E 09 43
  can0  120003FF   [4]  00 4E 09 43
  can0  120003FF   [4]  00 4E 09 43
  can0  120003FF   [4]  00 4E 09 41
  can0  120003FF   [4]  00 4E 09 41
  can0  120003FF   [4]  00 4E 09 41
  can0  120003FF   [4]  00 4E 09 45
  can0  120003FF   [4]  00 4E 09 47
  can0  120003FF   [4]  00 4E 09 45
  can0  120003FF   [4]  00 4E 09 47
  can0  120003FF   [4]  00 4E 09 49
  can0  120003FF   [4]  00 4E 09 49
  can0  120003FF   [4]  00 4E 09 4D
  can0  120003FF   [4]  00 4E 09 51
  can0  120003FF   [4]  00 4E 09 51
  can0  120003FF   [4]  00 4E 09 53
  can0  120003FF   [4]  00 4E 09 53
  can0  120003FF   [4]  00 4E 09 53
  can0  120003FF   [4]  00 4E 09 4D
  can0  120003FF   [4]  00 4E 09 4D
  can0  120003FF   [4]  00 4E 09 4B
  can0  120003FF   [4]  00 4E 09 4D
  can0  120003FF   [4]  00 4E 09 47
  can0  120003FF   [4]  00 4E 09 47
  can0  120003FF   [4]  00 4E 09 47
  can0  120003FF   [4]  00 4E 09 49
  can0  120003FF   [4]  00 4E 09 49
  can0  120003FF   [4]  00 4E 09 4B
  can0  120003FF   [4]  00 4E 09 4D
  can0  120003FF   [4]  00 4E 09 4D
  can0  120003FF   [4]  00 4E 09 4F
  can0  120003FF   [4]  00 4E 09 4F
  can0  120003FF   [4]  00 4E 09 51
  can0  120003FF   [4]  00 4E 09 51
  can0  120003FF   [4]  00 4E 09 51
  can0  120003FF   [4]  00 4E 09 53
  can0  120003FF   [4]  00 4E 09 4F
  can0  120003FF   [4]  00 4E 09 4D
  can0  120003FF   [4]  00 4E 09 4B
  can0  120003FF   [4]  00 4E 09 4B
  can0  120003FF   [4]  00 4E 09 4D
  can0  120003FF   [4]  00 4E 09 4F
  can0  120003FF   [4]  00 4E 09 4D
  can0  120003FF   [4]  00 4E 09 4D
  can0  120003FF   [4]  00 4E 09 4F
  can0  120003FF   [4]  00 4E 09 51
  can0  120003FF   [4]  00 4E 09 51
  can0  120003FF   [4]  00 4E 09 53
  can0  120003FF   [4]  00 4E 09 4F
  can0  120003FF   [4]  00 4E 09 4F
  can0  120003FF   [4]  00 4E 09 51
  can0  120003FF   [4]  00 4E 09 53
  can0  120003FF   [4]  00 4E 09 51
  can0  120003FF   [4]  00 4E 09 4D
  can0  120003FF   [4]  00 4E 09 4F
  can0  120003FF   [4]  00 4E 09 4F
  can0  120003FF   [4]  00 4E 09 4F
  can0  120003FF   [4]  00 4E 09 4F
  can0  120003FF   [4]  00 4E 09 4D
  can0  120003FF   [4]  00 4E 09 4F
  can0  120003FF   [4]  00 4E 09 51
  can0  120003FF   [4]  00 4E 09 4F
  can0  120003FF   [4]  00 4E 09 4D
  can0  120003FF   [4]  00 4E 09 4D
  can0  120003FF   [4]  00 4E 09 4B
  can0  120003FF   [4]  00 4E 09 49
  can0  120003FF   [4]  00 4E 09 47
  can0  120003FF   [4]  00 4E 09 47
  can0  120003FF   [4]  00 4E 09 45
  can0  140811FF   [8]  00 00 34 00 04 FF AB 00
  can0  140811FF   [8]  01 02 00 00 00 0A 00 03
  can0  140811FF   [8]  02 00 0C 00 00 00 10 00
  can0  140811FF   [8]  03 00 00 12 04 B6 00 14
  can0  140811FF   [8]  04 00 00 00 18 00 00 00
  can0  140811FF   [8]  05 86 00 00 00 8A 00 00
  can0  140811FF   [8]  06 00 96 00 00 00 98 00
  can0  140811FF   [6]  07 00 00 9A 00 01
  can0  120003FF   [4]  00 4E 09 47
  can0  120003FF   [4]  00 4E 09 47
  can0  120003FF   [4]  00 4E 09 4B
  can0  120003FF   [4]  00 4E 09 4F
  can0  120003FF   [4]  00 4E 09 51
  can0  120003FF   [4]  00 4E 09 4F
  can0  120003FF   [4]  00 4E 09 4B
  can0  120003FF   [4]  00 4E 09 49
  can0  120003FF   [4]  00 4E 09 4D
  can0  120003FF   [4]  00 4E 09 4F
  can0  120003FF   [4]  00 4E 09 4F
  can0  120003FF   [4]  00 4E 09 4F
  can0  120003FF   [4]  00 4E 09 4B
  can0  120003FF   [4]  00 4E 09 4F
  can0  120003FF   [4]  00 4E 09 57
  can0  120003FF   [4]  00 4E 09 59
  can0  140813FF   [8]  00 00 14 00 7C 00 01 00
  can0  140813FF   [8]  01 7E 00 00 00 80 00 00
  can0  140813FF   [8]  02 00 82 00 00 02 94 0F
  can0  140813FF   [2]  03 A0
  can0  120003FF   [4]  00 4E 09 59
  can0  120003FF   [4]  00 4E 09 55
  can0  120003FF   [4]  00 4E 09 55
  can0  120003FF   [4]  00 4E 09 57
  can0  120003FF   [4]  00 4E 09 59
  can0  120003FF   [4]  00 4E 09 55
  can0  120003FF   [4]  00 4E 09 53
  can0  120003FF   [4]  00 4E 09 53
  can0  120003FF   [4]  00 4E 09 53
  can0  120003FF   [4]  00 4E 09 55
  can0  120003FF   [4]  00 4E 09 53
  can0  120003FF   [4]  00 4E 09 4D
  can0  140810FF   [8]  00 00 0C 00 84 00 00 00
  can0  120003FF   [4]  00 4E 09 4D
  can0  140810FF   [8]  01 8E 00 00 00 90 00 00
  can0  120003FF   [4]  00 4E 09 4B
  can0  120003FF   [4]  00 4E 09 47
  can0  120003FF   [4]  00 4E 09 45
  can0  120003FF   [4]  00 4E 09 3F
  can0  120003FF   [4]  00 4E 09 3C
  can0  120003FF   [4]  00 4E 09 43
  can0  120003FF   [4]  00 4E 09 47
  can0  120003FF   [4]  00 4E 09 47
  can0  120003FF   [4]  00 4E 09 4F
  can0  120003FF   [4]  00 4E 09 51
  can0  120003FF   [4]  00 4E 09 57
  can0  120003FF   [4]  00 4E 09 5D
  can0  120003FF   [4]  00 4E 09 5F
  can0  120003FF   [4]  00 4E 09 57
  can0  120003FF   [4]  00 4E 09 57
  can0  120003FF   [4]  00 4E 09 59
  can0  120003FF   [4]  00 4E 09 55
  can0  120003FF   [4]  00 4E 09 55
  can0  120003FF   [4]  00 4E 09 51
  can0  120003FF   [4]  00 4E 09 4F
  can0  120003FF   [4]  00 4E 09 51
  can0  120003FF   [4]  00 4E 09 51
  can0  120003FF   [4]  00 4E 09 51
  can0  120003FF   [4]  00 4E 09 4D
  can0  120003FF   [4]  00 4E 09 4D
  can0  120003FF   [4]  00 4E 09 4B
  can0  120003FF   [4]  00 4E 09 4B
  can0  120003FF   [4]  00 4E 09 49
  can0  120003FF   [4]  00 4E 09 4B
  can0  120003FF   [4]  00 4E 09 4B
  can0  120003FF   [4]  00 4E 09 49
  can0  120003FF   [4]  00 4E 09 49
  can0  120003FF   [4]  00 4E 09 49
  can0  120003FF   [4]  00 4E 09 4B
  can0  120003FF   [4]  00 4E 09 49
  can0  120003FF   [4]  00 4E 09 4B
  can0  120003FF   [4]  00 4E 09 45
  can0  120003FF   [4]  00 4E 09 45
  can0  120003FF   [4]  00 4E 09 45
  can0  120003FF   [4]  00 4E 09 47
  can0  120003FF   [4]  00 4E 09 47
  can0  120003FF   [4]  00 4E 09 49
  can0  120003FF   [4]  00 4E 09 4B
  can0  120003FF   [4]  00 4E 09 4B
  can0  120003FF   [4]  00 4E 09 4F
  can0  120003FF   [4]  00 4E 09 4F
  can0  120003FF   [4]  00 4E 09 4D
  can0  120003FF   [4]  00 4E 09 4B
  can0  120003FF   [4]  00 4E 09 4D
  can0  120003FF   [4]  00 4E 09 4B
  can0  120003FF   [4]  00 4E 09 4B
  can0  140812FF   [8]  00 00 70 00 06 00 AC 00
  can0  120003FF   [4]  00 4E 09 45
  can0  140812FF   [8]  01 08 00 AC 02 3E 00 00
  can0  140812FF   [8]  02 02 40 00 00 02 42 00
  can0  140812FF   [8]  03 00 02 44 00 00 02 70
  can0  140812FF   [8]  04 00 00 02 A4 00 00 02
  can0  140812FF   [8]  05 A6 00 00 00 EA 00 00
  can0  140812FF   [8]  06 00 EC 00 00 00 F8 00
  can0  140812FF   [8]  07 00 00 FE 00 00 01 38
  can0  140812FF   [8]  08 00 00 01 3A 00 00 01
  can0  140812FF   [8]  09 3C 00 00 01 3E 00 00
  can0  140812FF   [8]  0A 01 40 00 00 01 42 00
  can0  120003FF   [4]  00 4E 09 41
  can0  140812FF   [8]  0B 00 01 44 00 00 01 46
  can0  140812FF   [8]  0C 00 00 03 72 80 00 03
  can0  140812FF   [8]  0D 74 00 00 03 76 00 00
  can0  140812FF   [8]  0E 03 78 00 00 03 7A 00
  can0  140812FF   [8]  0F 00 03 7C 01 0F 03 7E
  can0  140812FF   [3]  10 00 00
  can0  120003FF   [4]  00 4E 09 43
  can0  120003FF   [4]  00 4E 09 45
  can0  120003FF   [4]  00 4E 09 49
  can0  120003FF   [4]  00 4E 09 49
  can0  120003FF   [4]  00 4E 09 47
  can0  120003FF   [4]  00 4E 09 47
  can0  120003FF   [4]  00 4E 09 49
  can0  120003FF   [4]  00 4E 09 4B
  can0  120003FF   [4]  00 4E 09 49
  can0  120003FF   [4]  00 4E 09 49
  can0  120003FF   [4]  00 4E 09 45
  can0  120003FF   [4]  00 4E 09 43
  can0  120003FF   [4]  00 4E 09 47
  can0  120003FF   [4]  00 4E 09 49
  can0  120003FF   [4]  00 4E 09 47
  can0  120003FF   [4]  00 4E 09 45
  can0  120003FF   [4]  00 4E 09 45
  can0  120003FF   [4]  00 4E 09 45
  can0  120003FF   [4]  00 4E 09 4B
  can0  120003FF   [4]  00 4E 09 47
  can0  120003FF   [4]  00 4E 09 47
  can0  120003FF   [4]  00 4E 09 47
  can0  120003FF   [4]  00 4E 09 47
  can0  120003FF   [4]  00 4E 09 49
  can0  120003FF   [4]  00 4E 09 47
  can0  120003FF   [4]  00 4E 09 49
  can0  120003FF   [4]  00 4E 09 47
  can0  120003FF   [4]  00 4E 09 4B
  can0  120003FF   [4]  00 4E 09 49
  can0  120003FF   [4]  00 4E 09 4B
  can0  120003FF   [4]  00 4E 09 4B
  can0  120003FF   [4]  00 4E 09 4B
  can0  120003FF   [4]  00 4E 09 4D
  can0  120003FF   [4]  00 4E 09 4B
  can0  120003FF   [4]  00 4E 09 45
  can0  120003FF   [4]  00 4E 09 47
  can0  120003FF   [4]  00 4E 09 49
  can0  120003FF   [4]  00 4E 09 4B
  can0  120003FF   [4]  00 4E 09 4D
  can0  140811FF   [8]  00 00 34 00 04 FF AC 00
  can0  140811FF   [8]  01 02 00 00 00 0A 00 00
  can0  140811FF   [8]  02 00 0C 00 00 00 10 00
  can0  140811FF   [8]  03 00 00 12 04 B5 00 14
  can0  140811FF   [8]  04 00 00 00 18 00 00 00
  can0  140811FF   [8]  05 86 00 00 00 8A 00 00
  can0  140811FF   [8]  06 00 96 00 00 00 98 00
  can0  140811FF   [6]  07 00 00 9A 00 01
  can0  120003FF   [4]  00 4E 09 4B
  can0  120003FF   [4]  00 4E 09 47
  can0  120003FF   [4]  00 4E 09 47
  can0  120003FF   [4]  00 4E 09 49
  can0  120003FF   [4]  00 4E 09 45
  can0  120003FF   [4]  00 4E 09 43
  can0  120003FF   [4]  00 4E 09 43
  can0  120003FF   [4]  00 4E 09 3F
  can0  140810FF   [8]  00 00 0C 00 84 00 00 00
  can0  140810FF   [8]  01 8E 00 00 00 90 00 00
  can0  120003FF   [4]  00 4E 09 3F
  can0  120003FF   [4]  00 4E 09 4B
  can0  120003FF   [4]  00 4E 09 4D
  can0  120003FF   [4]  00 4E 09 51
  can0  120003FF   [4]  00 4E 09 55
  can0  120003FF   [4]  00 4E 09 55
  can0  120003FF   [4]  00 4E 09 59
  can0  120003FF   [4]  00 4E 09 5E
  can0  120003FF   [4]  00 4E 09 5E
  can0  120003FF   [4]  00 4E 09 57
  can0  120003FF   [4]  00 4E 09 55
  can0  120003FF   [4]  00 4E 09 55
  can0  120003FF   [4]  00 4E 09 57
  can0  120003FF   [4]  00 4E 09 53
  can0  120003FF   [4]  00 4E 09 4D
  can0  120003FF   [4]  00 4E 09 4D
  can0  120003FF   [4]  00 4E 09 4B
  can0  120003FF   [4]  00 4E 09 51
  can0  120003FF   [4]  00 4E 09 4F
  can0  120003FF   [4]  00 4E 09 4D
  can0  120003FF   [4]  00 4E 09 4F
  can0  120003FF   [4]  00 4E 09 4F
  can0  120003FF   [4]  00 4E 09 4F
  can0  120003FF   [4]  00 4E 09 4B
  can0  120003FF   [4]  00 4E 09 4B
  can0  120003FF   [4]  00 4E 09 47
  can0  120003FF   [4]  00 4E 09 47
  can0  120003FF   [4]  00 4E 09 49
  can0  120003FF   [4]  00 4E 09 45
  can0  120003FF   [4]  00 4E 09 43
  can0  120003FF   [4]  00 4E 09 45
  can0  120003FF   [4]  00 4E 09 45
  can0  120003FF   [4]  00 4E 09 43
  can0  120003FF   [4]  00 4E 09 47
  can0  120003FF   [4]  00 4E 09 43
  can0  120003FF   [4]  00 4E 09 41
  can0  120003FF   [4]  00 4E 09 47
  can0  120003FF   [4]  00 4E 09 49
  can0  120003FF   [4]  00 4E 09 4B
  can0  120003FF   [4]  00 4E 09 4F
  can0  120003FF   [4]  00 4E 09 4D
  can0  120003FF   [4]  00 4E 09 4D
  can0  120003FF   [4]  00 4E 09 51
  can0  120003FF   [4]  00 4E 09 51
  can0  120003FF   [4]  00 4E 09 51
  can0  120003FF   [4]  00 4E 09 51
  can0  120003FF   [4]  00 4E 09 51
  can0  120003FF   [4]  00 4E 09 4D
  can0  120003FF   [4]  00 4E 09 4B
  can0  120003FF   [4]  00 4E 09 4D
  can0  120003FF   [4]  00 4E 09 4F
  can0  120003FF   [4]  00 4E 09 4F
  can0  120003FF   [4]  00 4E 09 4D
  can0  120003FF   [4]  00 4E 09 4D
  can0  120003FF   [4]  00 4E 09 4D
  can0  120003FF   [4]  00 4E 09 53
  can0  120003FF   [4]  00 4E 09 57
  can0  120003FF   [4]  00 4E 09 53
  can0  120003FF   [4]  00 4E 09 51
  can0  120003FF   [4]  00 4E 09 51
  can0  120003FF   [4]  00 4E 09 53
  can0  120003FF   [4]  00 4E 09 55
  can0  120003FF   [4]  00 4E 09 55
  can0  120003FF   [4]  00 4E 09 4F
  can0  120003FF   [4]  00 4E 09 4F
  can0  120003FF   [4]  00 4E 09 4F
  can0  120003FF   [4]  00 4E 09 53
  can0  120003FF   [4]  00 4E 09 4F
  can0  120003FF   [4]  00 4E 09 4F
  can0  120003FF   [4]  00 4E 09 4F
  can0  120003FF   [4]  00 4E 09 51
  can0  120003FF   [4]  00 4E 09 55
  can0  120003FF   [4]  00 4E 09 55
  can0  120003FF   [4]  00 4E 09 53
  can0  120003FF   [4]  00 4E 09 4F
  can0  120003FF   [4]  00 4E 09 4F
  can0  120003FF   [4]  00 4E 09 4F
  can0  120003FF   [4]  00 4E 09 4D
  can0  120003FF   [4]  00 4E 09 4B
  can0  120003FF   [4]  00 4E 09 49
  can0  120003FF   [4]  00 4E 09 49
  can0  120003FF   [4]  00 4E 09 49
  can0  120003FF   [4]  00 4E 09 4B
  can0  120003FF   [4]  00 4E 09 4F
  can0  120003FF   [4]  00 4E 09 53
  can0  120003FF   [4]  00 4E 09 53
  can0  120003FF   [4]  00 4E 09 51
  can0  120003FF   [4]  00 4E 09 51
  can0  140813FF   [8]  00 00 14 00 7C 00 01 00
  can0  140813FF   [8]  01 7E 00 00 00 80 00 00
  can0  140813FF   [8]  02 00 82 00 00 02 94 0F
  can0  140813FF   [2]  03 A0
  can0  120003FF   [4]  00 4E 09 51
  can0  120003FF   [4]  00 4E 09 4F
  can0  120003FF   [4]  00 4E 09 4D
  can0  120003FF   [4]  00 4E 09 4B
  can0  120003FF   [4]  00 4E 09 4B
  can0  120003FF   [4]  00 4E 09 4B
  can0  120003FF   [4]  00 4E 09 4B
  can0  120003FF   [4]  00 4E 09 47
  can0  120003FF   [4]  00 4E 09 43
  can0  120003FF   [4]  00 4E 09 49
  can0  120003FF   [4]  00 4E 09 45
  can0  120003FF   [4]  00 4E 09 45
  can0  140810FF   [8]  00 00 0C 00 84 00 00 00
  can0  140810FF   [8]  01 8E 00 00 00 90 00 00
  can0  120003FF   [4]  00 4E 09 43
  can0  120003FF   [4]  00 4E 09 45
  can0  120003FF   [4]  00 4E 09 49
  can0  140812FF   [8]  00 00 70 00 06 00 AC 00
  can0  140812FF   [8]  01 08 00 AC 02 3E 00 00
  can0  120003FF   [4]  00 4E 09 4D
  can0  140812FF   [8]  02 02 40 00 00 02 42 00
  can0  140812FF   [8]  03 00 02 44 00 00 02 70
  can0  140812FF   [8]  04 00 00 02 A4 00 00 02
  can0  140812FF   [8]  05 A6 00 00 00 EA 00 00
  can0  140812FF   [8]  06 00 EC 00 00 00 F8 00
  can0  140812FF   [8]  07 00 00 FE 00 00 01 38
  can0  140812FF   [8]  08 00 00 01 3A 00 00 01
  can0  140812FF   [8]  09 3C 00 00 01 3E 00 00
  can0  140812FF   [8]  0A 01 40 00 00 01 42 00
  can0  140812FF   [8]  0B 00 01 44 00 00 01 46
  can0  120003FF   [4]  00 4E 09 51
  can0  140812FF   [8]  0C 00 00 03 72 80 00 03
  can0  140812FF   [8]  0D 74 00 00 03 76 00 00
  can0  140812FF   [8]  0E 03 78 00 00 03 7A 00
  can0  140812FF   [8]  0F 00 03 7C 01 0F 03 7E
  can0  140812FF   [3]  10 00 00
  can0  120003FF   [4]  00 4E 09 4F
  can0  120003FF   [4]  00 4E 09 51
  can0  120003FF   [4]  00 4E 09 53
  can0  120003FF   [4]  00 4E 09 53
  can0  120003FF   [4]  00 4E 09 4F
  can0  120003FF   [4]  00 4E 09 4F
  can0  120003FF   [4]  00 4E 09 4B
  can0  120003FF   [4]  00 4E 09 4B
  can0  140811FF   [8]  00 00 34 00 04 FF AE 00
  can0  140811FF   [8]  01 02 00 00 00 0A 00 08
  can0  140811FF   [8]  02 00 0C 00 00 00 10 00
  can0  140811FF   [8]  03 00 00 12 04 B6 00 14
  can0  140811FF   [8]  04 00 00 00 18 00 00 00
  can0  140811FF   [8]  05 86 00 00 00 8A 00 00
  can0  140811FF   [8]  06 00 96 00 00 00 98 00
  can0  140811FF   [6]  07 00 00 9A 00 01
  can0  120003FF   [4]  00 4E 09 4B
  can0  120003FF   [4]  00 4E 09 4B
  can0  120003FF   [4]  00 4E 09 4B
  can0  120003FF   [4]  00 4E 09 4D
  can0  120003FF   [4]  00 4E 09 4F
  can0  120003FF   [4]  00 4E 09 55
  can0  120003FF   [4]  00 4E 09 57
  can0  120003FF   [4]  00 4E 09 55
  can0  120003FF   [4]  00 4E 09 51
  can0  120003FF   [4]  00 4E 09 51
  can0  120003FF   [4]  00 4E 09 51
  can0  120003FF   [4]  00 4E 09 4F
  can0  120003FF   [4]  00 4E 09 4D
  can0  120003FF   [4]  00 4E 09 4B
  can0  120003FF   [4]  00 4E 09 49
  can0  120003FF   [4]  00 4E 09 4B
  can0  120003FF   [4]  00 4E 09 4D
  can0  120003FF   [4]  00 4E 09 4B
  can0  120003FF   [4]  00 4E 09 4F
  can0  120003FF   [4]  00 4E 09 53
  can0  120003FF   [4]  00 4E 09 53
  can0  120003FF   [4]  00 4E 09 53
  can0  120003FF   [4]  00 4E 09 55
  can0  120003FF   [4]  00 4E 09 53
  can0  120003FF   [4]  00 4E 09 53
  can0  120003FF   [4]  00 4E 09 55
  can0  120003FF   [4]  00 4E 09 57
  can0  120003FF   [4]  00 4E 09 55
  can0  120003FF   [4]  00 4E 09 53
  can0  120003FF   [4]  00 4E 09 4F
  can0  120003FF   [4]  00 4E 09 51
  can0  120003FF   [4]  00 4E 09 51
  can0  120003FF   [4]  00 4E 09 53
  can0  120003FF   [4]  00 4E 09 51
  can0  120003FF   [4]  00 4E 09 51
  can0  120003FF   [4]  00 4E 09 53
  can0  120003FF   [4]  00 4E 09 51
  can0  120003FF   [4]  00 4E 09 53
  can0  120003FF   [4]  00 4E 09 51
  can0  120003FF   [4]  00 4E 09 51
  can0  120003FF   [4]  00 4E 09 51
  can0  120003FF   [4]  00 4E 09 53
  can0  120003FF   [4]  00 4E 09 53
  can0  120003FF   [4]  00 4E 09 51
  can0  120003FF   [4]  00 4E 09 53
  can0  120003FF   [4]  00 4E 09 53
  can0  120003FF   [4]  00 4E 09 53
  can0  120003FF   [4]  00 4E 09 53
  can0  120003FF   [4]  00 4E 09 51
  can0  120003FF   [4]  00 4E 09 4D
  can0  120003FF   [4]  00 4E 09 49
  can0  120003FF   [4]  00 4E 09 49
  can0  120003FF   [4]  00 4E 09 47
  can0  120003FF   [4]  00 4E 09 49
  can0  120003FF   [4]  00 4E 09 4B
  can0  120003FF   [4]  00 4E 09 49
  can0  120003FF   [4]  00 4E 09 47
  can0  120003FF   [4]  00 4E 09 47
  can0  120003FF   [4]  00 4E 09 4B
  can0  120003FF   [4]  00 4E 09 4D
  can0  120003FF   [4]  00 4E 09 51
  can0  120003FF   [4]  00 4E 09 4D
  can0  120003FF   [4]  00 4E 09 4B
  can0  120003FF   [4]  00 4E 09 4D
  can0  120003FF   [4]  00 4E 09 51
  can0  120003FF   [4]  00 4E 09 51
  can0  120003FF   [4]  00 4E 09 4F
  can0  120003FF   [4]  00 4E 09 4F
  can0  120003FF   [4]  00 4E 09 4B
  can0  120003FF   [4]  00 4E 09 4D
  can0  120003FF   [4]  00 4E 09 4D
  can0  120003FF   [4]  00 4E 09 4B
  can0  120003FF   [4]  00 4E 09 4D
  can0  120003FF   [4]  00 4E 09 4D
  can0  120003FF   [4]  00 4E 09 4F
  can0  120003FF   [4]  00 4E 09 4B
  can0  120003FF   [4]  00 4E 09 4D
  can0  120003FF   [4]  00 4E 09 4B
  can0  120003FF   [4]  00 4E 09 49
  can0  120003FF   [4]  00 4E 09 47
  can0  120003FF   [4]  00 4E 09 45
  can0  120003FF   [4]  00 4E 09 45
  can0  120003FF   [4]  00 4E 09 45
  can0  120003FF   [4]  00 4E 09 47
  can0  120003FF   [4]  00 4E 09 4B
  can0  120003FF   [4]  00 4E 09 4D
  can0  120003FF   [4]  00 4E 09 4D
  can0  120003FF   [4]  00 4E 09 4F
  can0  140810FF   [8]  00 00 0C 00 84 00 00 00
  can0  140810FF   [8]  01 8E 00 00 00 90 00 00
  can0  120003FF   [4]  00 4E 09 4D
  can0  120003FF   [4]  00 4E 09 4D
  can0  120003FF   [4]  00 4E 09 4D
  can0  120003FF   [4]  00 4E 09 4B
  can0  120003FF   [4]  00 4E 09 4B
  can0  120003FF   [4]  00 4E 09 4D
  can0  120003FF   [4]  00 4E 09 4F
  can0  120003FF   [4]  00 4E 09 4F
  can0  120003FF   [4]  00 4E 09 4D
  can0  120003FF   [4]  00 4E 09 4D
  can0  120003FF   [4]  00 4E 09 4B
  can0  120003FF   [4]  00 4E 09 4B
  can0  120003FF   [4]  00 4E 09 45
  can0  120003FF   [4]  00 4E 09 45
  can0  120003FF   [4]  00 4E 09 45
  can0  120003FF   [4]  00 4E 09 45
  can0  120003FF   [4]  00 4E 09 49
  can0  120003FF   [4]  00 4E 09 47
  can0  120003FF   [4]  00 4E 09 49
  can0  120003FF   [4]  00 4E 09 4B
  can0  120003FF   [4]  00 4E 09 51
  can0  120003FF   [4]  00 4E 09 53
  can0  120003FF   [4]  00 4E 09 51
  can0  120003FF   [4]  00 4E 09 53
  can0  120003FF   [4]  00 4E 09 53
  can0  120003FF   [4]  00 4E 09 53
  can0  120003FF   [4]  00 4E 09 55
  can0  120003FF   [4]  00 4E 09 51
  can0  120003FF   [4]  00 4E 09 4F
  can0  120003FF   [4]  00 4E 09 51
  can0  120003FF   [4]  00 4E 09 4D
  can0  120003FF   [4]  00 4E 09 4F
  can0  140811FF   [8]  00 00 34 00 04 FF AE 00
  can0  120003FF   [4]  00 4E 09 4F
  can0  140811FF   [8]  01 02 00 00 00 0A 00 00
  can0  140811FF   [8]  02 00 0C 00 00 00 10 00
  can0  140811FF   [8]  03 00 00 12 04 B6 00 14
  can0  140811FF   [8]  04 00 00 00 18 00 00 00
  can0  140811FF   [8]  05 86 00 00 00 8A 00 00
  can0  140811FF   [8]  06 00 96 00 00 00 98 00
  can0  140811FF   [6]  07 00 00 9A 00 01
  can0  120003FF   [4]  00 4E 09 4F
  can0  120003FF   [4]  00 4E 09 4F
  can0  120003FF   [4]  00 4E 09 4F
  can0  120003FF   [4]  00 4E 09 51
  can0  120003FF   [4]  00 4E 09 4F
  can0  120003FF   [4]  00 4E 09 51
  can0  120003FF   [4]  00 4E 09 4F
  can0  120003FF   [4]  00 4E 09 51
  can0  120003FF   [4]  00 4E 09 4F
  can0  120003FF   [4]  00 4E 09 54
  can0  120003FF   [4]  00 4E 09 4F
  can0  120003FF   [4]  00 4E 09 4D
  can0  120003FF   [4]  00 4E 09 4F
  can0  120003FF   [4]  00 4E 09 4F
  can0  120003FF   [4]  00 4E 09 4B
  can0  120003FF   [4]  00 4E 09 4B
  can0  120003FF   [4]  00 4E 09 49
  can0  120003FF   [4]  00 4E 09 47
  can0  120003FF   [4]  00 4E 09 47
  can0  120003FF   [4]  00 4E 09 4B
  can0  120003FF   [4]  00 4E 09 4B
  can0  140812FF   [8]  00 00 70 00 06 00 AC 00
  can0  120003FF   [4]  00 4E 09 47
  can0  140812FF   [8]  01 08 00 AB 02 3E 00 00
  can0  140812FF   [8]  02 02 40 00 00 02 42 00
  can0  140812FF   [8]  03 00 02 44 00 00 02 70
  can0  140812FF   [8]  04 00 00 02 A4 00 00 02
  can0  140812FF   [8]  05 A6 00 00 00 EA 00 00
  can0  140812FF   [8]  06 00 EC 00 00 00 F8 00
  can0  140812FF   [8]  07 00 00 FE 00 00 01 38
  can0  140812FF   [8]  08 00 00 01 3A 00 00 01
  can0  140812FF   [8]  09 3C 00 00 01 3E 00 00
  can0  140812FF   [8]  0A 01 40 00 00 01 42 00
  can0  120003FF   [4]  00 4E 09 49
  can0  140812FF   [8]  0B 00 01 44 00 00 01 46
  can0  140812FF   [8]  0C 00 00 03 72 80 00 03
  can0  140812FF   [8]  0D 74 00 00 03 76 00 00
  can0  140812FF   [8]  0E 03 78 00 00 03 7A 00
  can0  140812FF   [8]  0F 00 03 7C 01 0F 03 7E
  can0  140812FF   [3]  10 00 00
  can0  120003FF   [4]  00 4E 09 49
  can0  120003FF   [4]  00 4E 09 49
  can0  120003FF   [4]  00 4E 09 47
  can0  120003FF   [4]  00 4E 09 4B
  can0  120003FF   [4]  00 4E 09 47
  can0  120003FF   [4]  00 4E 09 45
  can0  120003FF   [4]  00 4E 09 49
  can0  120003FF   [4]  00 4E 09 49
  can0  120003FF   [4]  00 4E 09 49
  can0  120003FF   [4]  00 4E 09 4B
  can0  120003FF   [4]  00 4E 09 4D
  can0  120003FF   [4]  00 4E 09 4B
  can0  120003FF   [4]  00 4E 09 4D
  can0  120003FF   [4]  00 4E 09 51
  can0  120003FF   [4]  00 4E 09 4B
  can0  120003FF   [4]  00 4E 09 4B
  can0  120003FF   [4]  00 4E 09 4D
  can0  120003FF   [4]  00 4E 09 4F
  can0  120003FF   [4]  00 4E 09 4F
  can0  120003FF   [4]  00 4E 09 4F
  can0  120003FF   [4]  00 4E 09 4D
  can0  120003FF   [4]  00 4E 09 4D
  can0  120003FF   [4]  00 4E 09 4D
  can0  120003FF   [4]  00 4E 09 4F
  can0  120003FF   [4]  00 4E 09 51
  can0  120003FF   [4]  00 4E 09 4F
  can0  120003FF   [4]  00 4E 09 4D
  can0  120003FF   [4]  00 4E 09 4F
  can0  120003FF   [4]  00 4E 09 4D
  can0  120003FF   [4]  00 4E 09 4F
  can0  120003FF   [4]  00 4E 09 51
  can0  140813FF   [8]  00 00 14 00 7C 00 01 00
  can0  140813FF   [8]  01 7E 00 00 00 80 00 00
  can0  120003FF   [4]  00 4E 09 4F
  can0  140813FF   [8]  02 00 82 00 00 02 94 0F
  can0  140813FF   [2]  03 A0
  can0  120003FF   [4]  00 4E 09 4F
  can0  120003FF   [4]  00 4E 09 51
  can0  120003FF   [4]  00 4E 09 55
  can0  120003FF   [4]  00 4E 09 58
  can0  120003FF   [4]  00 4E 09 58
  can0  120003FF   [4]  00 4E 09 5C
  can0  120003FF   [4]  00 4E 09 5A
  can0  120003FF   [4]  00 4E 09 5A
  can0  120003FF   [4]  00 4E 09 55
  can0  120003FF   [4]  00 4E 09 59
  can0  120003FF   [4]  00 4E 09 59
  can0  120003FF   [4]  00 4E 09 59
  can0  140810FF   [8]  00 00 0C 00 84 00 00 00
  can0  140810FF   [8]  01 8E 00 00 00 90 00 00
  can0  120003FF   [4]  00 4E 09 55
  can0  120003FF   [4]  00 4E 09 51
  can0  120003FF   [4]  00 4E 09 51
  can0  120003FF   [4]  00 4E 09 4D
  can0  120003FF   [4]  00 4E 09 4D
  can0  120003FF   [4]  00 4E 09 4B
  can0  120003FF   [4]  00 4E 09 49
  can0  120003FF   [4]  00 4E 09 4B
  can0  120003FF   [4]  00 4E 09 4D
  can0  120003FF   [4]  00 4E 09 4B
  can0  120003FF   [4]  00 4E 09 4B
  can0  120003FF   [4]  00 4E 09 4B
  can0  120003FF   [4]  00 4E 09 4B